f (Hz),Re(Z),Im(Z)
118.4326171875,153668.7897277634,-4894239.883791712
121.124267578125,156508.9694397994,-4784552.611212431
123.81591796875,135591.443805572,-4658943.542658548
126.507568359375,145735.1709485455,-4518313.386674742
129.19921875,212088.6595945872,-4460135.323582126
131.890869140625,147684.3734471816,-4396238.90137074
134.58251953125,123594.1336246095,-4272314.386374156
137.274169921875,109471.0331580845,-4170691.371893184
139.9658203125,94316.74817815471,-4058614.537846281
142.657470703125,105053.4838877828,-3950101.529618427
145.34912109375,111428.8899500634,-3857172.130862148
148.040771484375,133004.333582632,-3775759.726463627
150.732421875,138301.165133522,-3706059.414049652
153.424072265625,122833.1661767864,-3632488.472594488
156.11572265625,136611.2998875786,-3540220.841968864
158.807373046875,164430.533281006,-3478898.421833201
161.4990234375,169716.0684426037,-3447620.649766527
164.190673828125,148436.957441004,-3415975.550545588
166.88232421875,92691.96516931563,-3364868.705953644
169.573974609375,68422.22720225417,-3263996.080561548
172.265625,68827.21035347665,-3179109.45077248
174.957275390625,62776.70691841409,-3123355.125971499
177.64892578125,57006.69615901177,-3054610.076188713
180.340576171875,39053.14365485809,-2989417.016570155
183.0322265625,32454.09811440686,-2904968.620517474
185.723876953125,41844.23977798368,-2837188.580876146
188.41552734375,53050.99003097641,-2772065.371652171
191.107177734375,63496.61077449107,-2723803.581086148
193.798828125,58573.19309657501,-2672821.692546206
196.490478515625,65211.51844411308,-2619119.50622851
199.18212890625,63164.86377474949,-2583240.796640583
201.873779296875,50087.94625361542,-2529965.294568705
204.5654296875,44081.45656940326,-2474444.484460866
207.257080078125,40258.11234343603,-2415254.359878789
209.94873046875,50499.90976564023,-2356493.828540332
212.640380859375,63762.45461711457,-2310915.672293045
215.33203125,81849.99658268412,-2275899.629509177
218.023681640625,76593.86487877523,-2257869.943481294
220.71533203125,55885.07063090859,-2217407.401619783
223.406982421875,46487.2483657083,-2171764.255142034
226.0986328125,37308.6155851174,-2122602.842095157
228.790283203125,32225.21152750297,-2072807.78351524
231.48193359375,30648.93922825479,-2026896.771930526
234.173583984375,35888.91012991159,-1980791.34565243
236.865234375,39076.09855917462,-1933435.544952194
239.556884765625,46648.16540784372,-1892590.64117479
242.24853515625,52880.00537915518,-1861523.973830839
244.940185546875,53045.90542276119,-1827519.711453863
247.6318359375,55166.97808432574,-1793078.165400664
250.323486328125,54846.00371546545,-1762101.607852538
253.01513671875,46676.44168909822,-1728116.146469293
255.706787109375,47934.24842060121,-1683149.367433377
258.3984375,58531.30405801746,-1648180.091874713
261.090087890625,67346.99917533052,-1625562.735448878
263.78173828125,60242.96773190526,-1601484.033782304
266.473388671875,52306.1190525576,-1569856.219868832
269.1650390625,42298.66971585715,-1536648.276098883
271.856689453125,39418.07408693135,-1498999.816524944
274.54833984375,37437.20058090339,-1460677.492342971
277.239990234375,37250.58489873218,-1429976.61789989
279.931640625,41406.83958664511,-1398480.994309284
282.623291015625,44884.39810093582,-1361988.232605239
285.31494140625,44505.46371812544,-1338889.709149066
288.006591796875,39193.48755349439,-1309775.064212131
290.6982421875,42874.91706102753,-1284227.297738141
293.389892578125,45124.0630117516,-1244840.147922206
296.08154296875,41691.76675196244,-1213355.180809514
298.773193359375,36972.14666486827,-1187654.526623914
301.46484375,35582.9288970162,-1154902.933468879
304.156494140625,40694.47848438316,-1127002.660922766
306.84814453125,45748.12270680028,-1096584.063958815
309.539794921875,46619.84165480393,-1072915.964215298
312.2314453125,45571.82806506452,-1047765.691674874
314.923095703125,43561.73347927439,-1028051.522354081
317.61474609375,36595.30381308619,-1001325.095280373
320.306396484375,26817.21907630134,-968831.6771018829
322.998046875,26125.79001446396,-927764.3590792682
325.689697265625,38843.4412501947,-892203.47719328
328.38134765625,51887.93625712283,-868369.8881196713
331.072998046875,56202.35048194349,-855699.5602884911
333.7646484375,51722.90551857377,-831455.9404654882
336.456298828125,53759.77973366201,-804545.288134677
339.14794921875,57374.39616996586,-785177.5074297066
341.839599609375,55638.0456832875,-764307.6970806897
344.53125,55213.06773389732,-740024.7463694576
347.222900390625,57107.70400457497,-719271.5441899138
349.91455078125,49660.00050041305,-699531.395846813
352.606201171875,45446.36842549623,-678161.5129034915
355.2978515625,41098.61737847587,-653370.6793143607
357.989501953125,37635.29516243074,-626543.6884032764
360.68115234375,37480.87806176581,-598864.7266212197
363.372802734375,38124.34380009418,-573789.4843384031
366.064453125,37232.41673433676,-550203.3638435954
368.756103515625,36437.65000362238,-525421.6216395336
371.44775390625,37167.77276993053,-499563.6598762114
374.139404296875,37790.79344460592,-475775.1756040642
376.8310546875,36678.63589915403,-451456.7870709121
379.522705078125,37779.92890711742,-427734.7204513433
382.21435546875,38619.30276613804,-404912.3631124249
384.906005859375,38436.08506212609,-381963.1639004074
387.59765625,38121.40372293622,-359788.9756612639
390.289306640625,38068.67176511778,-337118.2974799318
392.98095703125,37806.24233608502,-314845.9614114622
395.672607421875,36411.63685594883,-291216.0077614136
398.3642578125,36208.12198480998,-267580.3627807189
401.055908203125,35640.22315214564,-244293.4523598423
403.74755859375,36138.50643202551,-221169.8551988906
406.439208984375,36336.18671032642,-198246.753748202
409.130859375,36610.13121066226,-175468.0482771533
411.822509765625,36851.23880185563,-152939.5164641583
414.51416015625,36540.14679716742,-130511.6153537028
417.205810546875,37036.94553080471,-107667.8670254182
419.8974609375,36621.63956439011,-85686.82671814181
422.589111328125,35854.22311025904,-62798.84470340053
425.28076171875,35318.69783507699,-40070.04602753322
427.972412109375,35362.34480015544,-16985.70805759497
430.6640625,35101.26093402525,5623.913371646127
433.355712890625,34976.76034423943,29197.84268172662
436.04736328125,34734.48055405584,52791.02624500294
438.739013671875,36164.32623843256,76629.80325260632
441.4306640625,37538.63530442596,99449.23490865927
444.122314453125,39860.38539434413,121452.2889463974
446.81396484375,40240.08351102139,142281.0518004583
449.505615234375,39731.03769742689,163581.6855154874
452.197265625,39331.82984834937,184406.8525756045
454.888916015625,39406.7911204036,207701.5541130074
457.58056640625,39215.26792034721,230124.7079947483
460.272216796875,38768.39563573508,253098.0466457529
462.9638671875,37459.16950695649,274676.648161658
465.655517578125,35996.25253350064,296049.6938475113
468.34716796875,34802.4754027759,320877.8423649888
471.038818359375,33736.05874239236,345904.3126228367
473.73046875,33729.91209044444,370701.2013248253
476.422119140625,33530.24492011731,395630.5221696282
479.11376953125,34850.14356398699,420885.742570813
481.805419921875,37050.69040775209,446618.3163560292
484.4970703125,40782.81496658651,470054.3550572948
487.188720703125,43927.20949131769,491073.8897316985
489.88037109375,45577.49238053813,510615.8568263144
492.572021484375,44550.99483358528,530889.4110962757
495.263671875,43094.74895443099,553874.5040991154
497.955322265625,40611.44143386192,578001.2950581664
500.64697265625,38009.43853707064,601639.6923789786
503.338623046875,38334.86157830886,627141.1640131825
506.0302734375,37815.1632887032,654257.637083306
508.721923828125,36871.4300483056,678222.1441235355
511.41357421875,35575.32165148412,706083.4051671874
514.105224609375,35423.79063421323,732333.5180652764
516.796875,38608.37224923744,760690.8539362779
519.488525390625,39273.08632720949,784226.9628799206
522.18017578125,39913.82936683531,808469.1482901255
524.871826171875,42101.83247142703,839400.3154009616
527.5634765625,43272.2586145935,868669.6272960793
530.255126953125,47970.98426745998,891540.0709070715
532.94677734375,56148.46905380954,919380.3823701602
535.638427734375,56575.92692146321,935767.0120543275
538.330078125,62881.28132225733,958116.2670661443
541.021728515625,56897.09085516274,980639.9724149992
543.71337890625,49508.49331862537,1009060.291267162
546.405029296875,48640.82100457624,1036377.431566418
549.0966796875,54097.43117970412,1072626.698122424
551.788330078125,51678.9473235141,1078302.214695098
554.47998046875,44402.46351257557,1112312.041737332
557.171630859375,59798.68119462517,1149204.367252355
559.86328125,53308.42082488145,1181112.923534358
562.554931640625,46645.44197062301,1204838.602192641
565.24658203125,49596.45625118897,1233019.473112267
567.938232421875,52905.84734132369,1269085.891874937
570.6298828125,58085.44774219014,1303850.035451025
573.321533203125,60740.92823875589,1332829.351089337
576.01318359375,68496.30203302782,1365460.72475659
578.704833984375,71193.14417762699,1387773.446919836
581.396484375,72724.01151463411,1405502.360205985
584.088134765625,70660.93165228912,1438052.378322343
586.77978515625,66302.96391801503,1473867.646398222
589.471435546875,66749.80603318918,1503989.948722284
592.1630859375,68180.30947109946,1536222.389707607
594.854736328125,71272.61436986117,1562741.570048185
597.54638671875,63997.18133502985,1590937.961434812
600.238037109375,54207.63990684744,1630471.18195926
602.9296875,55530.84155871717,1669866.618316877
605.621337890625,56213.14786297968,1713795.149366136
608.31298828125,60063.48633049493,1756853.756964699
611.004638671875,62552.77849853219,1792570.886763455
613.6962890625,70083.75575612008,1834014.857969883
616.387939453125,77395.93214123366,1877451.033732739
619.07958984375,90239.50428012697,1909995.041320973
621.771240234375,101223.2330531854,1938234.85115901
624.462890625,102050.6747175194,1971993.356693567
627.154541015625,95675.42045714147,2006304.687077482
629.84619140625,99388.4142850814,2044553.962024531
632.537841796875,100618.6775713563,2086472.37728282
635.2294921875,107188.1072591913,2126287.436287225
637.921142578125,111092.2028447606,2154647.739904099
640.61279296875,100611.5448919501,2189625.408952525
643.304443359375,96253.90744387415,2233637.687217407
645.99609375,89105.61834801927,2279243.759444095
648.687744140625,85128.25195127471,2333991.417294599
651.37939453125,83336.53283707189,2389829.780628871
654.071044921875,91090.79004927215,2441995.998599361
656.7626953125,95795.7739454909,2500249.927811919
659.454345703125,112052.1752888917,2551801.684754523
662.14599609375,121465.4387556265,2600773.232072745
664.837646484375,135393.0119367587,2645964.638062415
667.529296875,136727.7803918104,2684928.232253139
670.220947265625,137787.4889935381,2730209.064450366
672.91259765625,133771.9213424369,2778220.745582378
675.604248046875,132065.8298374983,2832217.688326048
678.2958984375,127535.9467414928,2889505.71323933
680.987548828125,124433.0984519042,2950193.737743386
683.67919921875,125351.8256736418,3006408.227906418
686.370849609375,120359.9945975337,3075962.985501678
689.0625,109232.9266912942,3138885.42243633
691.754150390625,102401.9120757151,3214079.462214815
694.44580078125,101341.6477456432,3299383.990368372
697.137451171875,107617.5617633501,3385361.155578648
699.8291015625,120273.2669410762,3474942.317063658
702.520751953125,146730.5912794357,3565023.376890942
705.21240234375,165788.9996290719,3647341.789187443
707.904052734375,188402.7439260276,3724523.1088071
710.595703125,219999.1350788472,3791609.748653328
713.287353515625,224373.7353239859,3847758.197101109
715.97900390625,239725.1403510729,3925429.635869068
718.670654296875,242578.5693447568,3998019.820312457
721.3623046875,230915.4585596671,4078425.578720881
724.053955078125,234614.8000740166,4150989.972127537
726.74560546875,231173.3301147829,4245381.812313652
729.437255859375,223131.5512970464,4334526.587004029
732.12890625,202186.2755973072,4454317.120291788
734.820556640625,190075.9453718265,4580456.281568578
737.51220703125,180666.237409594,4711974.559303803
740.203857421875,184666.8690542711,4858871.807125727
742.8955078125,197076.183843439,5011655.863080307
745.587158203125,225555.1289475622,5157733.396040226
748.27880859375,241745.2672623277,5306703.168693176
750.970458984375,273207.8382246636,5457987.757065243
753.662109375,313911.9747813919,5602672.598825831
756.353759765625,346179.2791533625,5757795.669666514
759.04541015625,361442.3558592194,5913777.249261691
761.737060546875,376007.6557095918,6085580.600326477
764.4287109375,404664.7345096713,6258097.135309524
767.120361328125,429678.7655228976,6452200.890758262
769.81201171875,446528.3614704066,6644818.196384404
772.503662109375,455703.8513029731,6855094.390549379
775.1953125,481233.6588829212,7092503.916969056
777.886962890625,499811.0890042909,7344216.253695979
780.57861328125,535315.4940830442,7620854.272651302
783.270263671875,587366.2372851571,7908138.609721064
785.9619140625,635864.0286550035,8202831.451379048
788.653564453125,696075.803137032,8537645.162693091
791.34521484375,787178.9915065139,8894791.19042211
794.036865234375,884791.95977911,9241808.56225301
796.728515625,981632.8897372495,9608019.444827849
799.420166015625,1055433.121053153,9976517.978489233
802.11181640625,1135684.744192368,10426683.12301542
804.803466796875,1223851.106663021,10931489.39409729
807.4951171875,1345787.370712598,11462008.05314348
810.186767578125,1515871.861529507,12040670.54958219
812.87841796875,1651620.116309311,12680753.63650891
815.570068359375,1817777.108471432,13369420.58746737
818.26171875,2029343.072284903,14177022.87235567
820.953369140625,2234653.493890981,15096589.64420705
823.64501953125,2553050.203682366,16166419.52373302
826.336669921875,2922266.961960681,17372163.68550679
829.0283203125,3421703.46833812,18769559.78626332
831.719970703125,4116575.864077914,20383605.33638069
834.41162109375,4960621.264927742,22275473.04983066
837.103271484375,6160352.423010841,24415371.61603533
839.794921875,7772094.316756053,26998736.61997495
842.486572265625,9889929.574528988,29886056.95790188
845.17822265625,12912155.95847855,33605984.23209235
847.869873046875,17547982.80549163,37951324.86547428
850.5615234375,24481112.75152441,42895489.87139868
853.253173828125,35937090.39011712,47590862.27527781
855.94482421875,54452765.95867655,49463305.32027718
858.636474609375,79396095.94229452,39833353.75157497
861.328125,97869752.04834996,7197900.628249994
864.019775390625,87990766.35483797,-29435612.94540089
866.71142578125,63377886.8275223,-46864570.50023632
869.403076171875,42253429.04496249,-48390173.7728206
872.0947265625,28498413.98101823,-44275149.93016164
874.786376953125,20157435.95233088,-39442830.80156574
877.47802734375,14485426.80730681,-34912103.7508098
880.169677734375,11225489.04026295,-31054844.07924591
882.861328125,8591683.42584276,-27760977.78381164
885.552978515625,6904880.714194436,-25005806.72270722
888.24462890625,5561257.296412097,-22657821.35532562
890.936279296875,4629465.418362949,-20697522.02743676
893.6279296875,3946606.146832815,-19069566.98348107
896.319580078125,3404828.795555314,-17679045.9206531
899.01123046875,2949631.689414891,-16438646.93754781
901.702880859375,2587887.038379865,-15337892.93973155
904.39453125,2329336.44805022,-14408276.83976165
907.086181640625,2084067.247457924,-13562449.08515522
909.77783203125,1907388.898911245,-12838240.54446749
912.469482421875,1754259.745748689,-12171645.12789092
915.1611328125,1603335.265443108,-11548375.35757943
917.852783203125,1465360.096063621,-11053045.41217003
920.54443359375,1350542.047392647,-10565748.32058124
923.236083984375,1197924.114723947,-10116440.36677998
925.927734375,1091770.130884067,-9691437.848354863
928.619384765625,997839.5448430324,-9280043.745606376
931.31103515625,921286.1130397527,-8889895.44963813
934.002685546875,854726.6463192765,-8542041.883914836
936.6943359375,796872.8043879991,-8193910.522555309
939.385986328125,736688.3277280068,-7889117.901096917
942.07763671875,690520.2439380542,-7619080.349557592
944.769287109375,666214.832012687,-7329621.191209997
947.4609375,664810.7462781718,-7085347.044929782
950.152587890625,639551.3349903156,-6849238.379233874
952.84423828125,625319.6425932975,-6638177.761762788
955.535888671875,604928.0639169904,-6468881.480808604
958.2275390625,570505.1846226875,-6275883.45714717
960.919189453125,551098.4534714362,-6112628.201114907
963.61083984375,520516.8960092497,-5956427.03285793
966.302490234375,500799.916105954,-5795006.911322861
968.994140625,470747.6867719192,-5647747.802746788
971.685791015625,442960.5795716394,-5504906.540591852
974.37744140625,390505.9715391158,-5341956.48356308
977.069091796875,354888.964312329,-5197046.005306189
979.7607421875,371950.8325709759,-5056234.146006576
982.452392578125,349980.4023280788,-4909657.619524164
985.14404296875,351600.4695132581,-4794779.191072848
987.835693359375,323288.0737966801,-4664740.8786082
990.52734375,320888.2123810857,-4562158.820272816
993.218994140625,307842.1854002185,-4485284.039138186
995.91064453125,317698.3546465436,-4334211.583142795
998.602294921875,306417.8496337843,-4249613.170623271
1001.2939453125,291437.156034524,-4154190.974526091
1003.985595703125,252936.7596934843,-4062982.541242707
1006.67724609375,266451.9923191115,-3969434.119353504
1009.368896484375,256664.1724989841,-3896229.417195261
1012.060546875,253920.4086118651,-3822410.892584532
1014.752197265625,228364.9778473197,-3737324.41956854
1017.44384765625,217416.1806101794,-3647002.273673452
1020.135498046875,208657.7960470067,-3569905.793209516
1022.8271484375,205174.4822030797,-3477274.27450506
1025.518798828125,191090.9376330326,-3410035.217681213
1028.21044921875,189440.2133399518,-3341797.442251823
1030.902099609375,189266.2693398955,-3254848.207808681
1033.59375,187253.7757175272,-3206895.667520461
1036.285400390625,183232.4120326535,-3129707.903634576
1038.97705078125,186551.3825817884,-3068983.010919411
1041.668701171875,184461.6922857274,-3000624.782994199
1044.3603515625,184682.2315551848,-2954045.245002965
1047.052001953125,190332.2652080306,-2909767.954655131
1049.74365234375,140621.7180848188,-2784255.843037821
1052.435302734375,167284.1567906208,-2790284.915050764
1055.126953125,166610.2295130049,-2739423.834105975
1057.818603515625,151770.1334527537,-2698255.139819889
1060.51025390625,131589.0732207022,-2627121.135016219
1063.201904296875,134661.5615506601,-2578425.084770835
1065.8935546875,126654.6433672448,-2525377.68343965
1068.585205078125,125292.2652599853,-2464046.802346373
1071.27685546875,137086.8653122905,-2408862.746178696
1073.968505859375,121763.785352403,-2371810.351691374
1076.66015625,113259.6102689884,-2311157.045211265
1079.351806640625,132710.499708661,-2273784.91082054
1082.04345703125,143855.4973962267,-2233798.53421133
1084.735107421875,124646.3443381082,-2193851.418626552
1087.4267578125,130074.9098546624,-2154383.21843595
1090.118408203125,141933.2683568712,-2116128.190454653
1092.81005859375,134836.127983512,-2079409.716342874
1095.501708984375,124594.0699457754,-2042256.327686782
1098.193359375,124545.3724171228,-2003963.645216932
1100.885009765625,110058.7045508628,-1964939.068890784
1103.57666015625,104326.9240006867,-1926560.153384592
1106.268310546875,105391.9927764632,-1888277.815189188
1108.9599609375,102487.6205565499,-1843188.281108084
1111.651611328125,95336.69865718353,-1811285.636801204
1114.34326171875,91640.80611373729,-1760801.23292315
1117.034912109375,92128.11021611113,-1728839.463411114
1119.7265625,95022.45053582796,-1693462.294627842
1122.418212890625,94155.0188793704,-1653295.950708429
1125.10986328125,96659.46359143328,-1616307.747307208
1127.801513671875,96068.95389630261,-1586062.734027761
1130.4931640625,96003.79332189265,-1553277.335219231
1133.184814453125,104002.9844718493,-1524689.770360823
1135.87646484375,98533.24232355073,-1489411.702489378
1138.568115234375,95269.93636751114,-1464951.344213218
