f (Hz),Re(Z),Im(Z)
118.4326171875,2268863.004208996,-24277706.7845972
121.124267578125,2206825.698210895,-23854981.37504712
123.81591796875,2088725.491332933,-23276064.00204498
126.507568359375,1987049.203709019,-22726915.38979904
129.19921875,1921434.664714269,-22212119.08054316
131.890869140625,1899681.293880506,-21565539.34557703
134.58251953125,2026713.232463401,-20925960.12852197
137.274169921875,2362755.079167303,-20624687.89708988
139.9658203125,2453786.780409968,-20620898.83227472
142.657470703125,2178685.369534299,-20448418.12144872
145.34912109375,1860432.958669937,-20178748.31397855
148.040771484375,1651680.680999612,-19597998.86695855
150.732421875,1601941.079873318,-19094778.13633979
153.424072265625,1574393.212189596,-18731223.62223722
156.11572265625,1551120.638297939,-18314824.92520235
158.807373046875,1549189.503455547,-17926603.85806701
161.4990234375,1585529.962144398,-17574210.47498546
164.190673828125,1646883.794254098,-17288731.8996554
166.88232421875,1634248.628360901,-17091593.24303471
169.573974609375,1546787.989639215,-16866183.25066492
172.265625,1446201.513871177,-16561670.60934494
174.957275390625,1402150.848570779,-16233323.66659603
177.64892578125,1399150.596135122,-15962198.41648641
180.340576171875,1403627.559702785,-15705110.52275616
183.0322265625,1362641.107896332,-15494703.15998755
185.723876953125,1285892.054131581,-15268531.25959964
188.41552734375,1224681.888894577,-15010551.69835353
191.107177734375,1152337.887005818,-14728046.72146167
193.798828125,1137250.574582,-14442518.50982399
196.490478515625,1154037.131204453,-14195340.35192616
199.18212890625,1138920.144066611,-13959943.84288461
201.873779296875,1114704.053488362,-13736046.18711618
204.5654296875,1118893.552533195,-13516440.12997064
207.257080078125,1137080.152251414,-13316545.82222544
209.94873046875,1105131.870226746,-13144445.09354945
212.640380859375,1052245.018504103,-12950284.53136341
215.33203125,1008963.984580263,-12731886.98412383
218.023681640625,1001683.584834471,-12522159.13291436
220.71533203125,1010088.293879752,-12336675.3695422
223.406982421875,1005130.39292558,-12151538.31988057
226.0986328125,986130.4536409199,-11986237.93450734
228.790283203125,956695.1487057317,-11811275.53571223
231.48193359375,946232.4079160233,-11609418.27831934
234.173583984375,949318.114916499,-11430261.0645043
236.865234375,953448.4727334033,-11286868.67018955
239.556884765625,935164.0745896876,-11147500.93183145
242.24853515625,895456.5752424572,-10987301.5221314
244.940185546875,857674.6030383697,-10823295.92693327
247.6318359375,851781.7035957875,-10646459.64213696
250.323486328125,858050.9188318881,-10484787.75282365
253.01513671875,854392.5393596943,-10356211.34649804
255.706787109375,842589.0406227129,-10206174.57885662
258.3984375,821872.9737366632,-10061653.51371746
261.090087890625,809743.8231735592,-9905630.999545161
263.78173828125,808953.544361599,-9777594.455545008
266.473388671875,798193.3344081449,-9653183.311529674
269.1650390625,768246.0882150672,-9515791.941059377
271.856689453125,750262.6600579567,-9365642.571851017
274.54833984375,731663.9671874043,-9224494.090239093
277.239990234375,742149.4820190328,-9085464.033760495
279.931640625,758581.8440567796,-8959701.015352825
282.623291015625,759202.3936504477,-8839458.406109799
285.31494140625,754908.744644665,-8720110.896141339
288.006591796875,755022.3338635784,-8608855.329645285
290.6982421875,747632.4749031634,-8514236.393115886
293.389892578125,740165.3927203639,-8418277.00867709
296.08154296875,702359.7946593791,-8329580.794880719
298.773193359375,660843.7238873092,-8227109.690442086
301.46484375,611681.2815959427,-8098777.302128773
304.156494140625,590087.1352381266,-7972971.041523119
306.84814453125,572038.3708555464,-7841301.828232992
309.539794921875,548073.5141393373,-7715361.259085721
312.2314453125,537139.2577058875,-7568901.310353926
314.923095703125,551320.7232195386,-7422156.204703312
317.61474609375,574704.137264856,-7308622.77162943
320.306396484375,585082.6938102589,-7216844.626872723
322.998046875,585921.2708306649,-7127566.654396302
325.689697265625,572719.3634233729,-7027505.641851924
328.38134765625,564773.0632568415,-6920843.662940984
331.072998046875,550398.2502947588,-6806449.817383148
333.7646484375,549123.6737311594,-6697978.039807078
336.456298828125,556273.2590404896,-6593649.768248619
339.14794921875,575741.2954460699,-6508928.902931053
341.839599609375,581996.7804954513,-6419870.770499136
344.53125,584685.2219304824,-6329922.756162276
347.222900390625,577810.1573557465,-6233564.102910659
349.91455078125,579557.3972917801,-6158651.354632357
352.606201171875,582409.23052778,-6074313.396520576
355.2978515625,563069.1928753876,-5983229.944176775
357.989501953125,562586.3149919576,-5910735.333351038
360.68115234375,559367.3541850727,-5828164.424265031
363.372802734375,558319.1733114927,-5749846.292715843
366.064453125,554801.9943501181,-5666117.361694003
368.756103515625,544109.4711437888,-5601391.722749243
371.44775390625,521808.6065128154,-5511197.577382554
374.139404296875,523761.7951142461,-5434260.157099513
376.8310546875,508213.963905824,-5362702.103940587
379.522705078125,497634.7052259204,-5292123.696480234
382.21435546875,469305.3227244665,-5217357.082017235
384.906005859375,451527.0604696051,-5139567.929151311
387.59765625,425205.6511221619,-5043670.301760661
390.289306640625,410040.8818651725,-4953624.867639857
392.98095703125,396339.9906098613,-4858248.64267238
395.672607421875,389135.3592919717,-4759522.459025201
398.3642578125,375188.9989991276,-4678137.475097473
401.055908203125,373656.9062608718,-4592815.723979683
403.74755859375,372046.8462752133,-4504485.135795112
406.439208984375,369706.3526613885,-4426684.234465481
409.130859375,362202.5419585932,-4341869.562549489
411.822509765625,354500.4346272063,-4256139.665767219
414.51416015625,345917.5441483315,-4173801.50044027
417.205810546875,340628.7764895952,-4085003.765427675
419.8974609375,340277.8598643167,-3997281.992541998
422.589111328125,348548.8942131488,-3911179.781546852
425.28076171875,353135.3466322066,-3833485.227251087
427.972412109375,373700.1955967391,-3757195.826595882
430.6640625,388348.0082142036,-3690222.192032168
433.355712890625,397665.6887394243,-3632522.049462348
436.04736328125,391931.9782125424,-3582947.967796936
438.739013671875,381965.7690923838,-3526217.546031459
441.4306640625,358841.9990616456,-3456020.969461314
444.122314453125,343474.2826724022,-3383458.737279717
446.81396484375,335975.4294698675,-3309432.345023524
449.505615234375,322221.0466200956,-3226271.028902434
452.197265625,312781.6961014111,-3149206.028809516
454.888916015625,314257.806265428,-3073345.069187243
457.58056640625,322424.8845432615,-3006678.525245737
460.272216796875,314883.479678611,-2934736.93077201
462.9638671875,317931.4527037242,-2862981.411390997
465.655517578125,309781.3791412182,-2803723.078989116
468.34716796875,301006.8908970036,-2725377.383878642
471.038818359375,306136.064474183,-2659699.162530541
473.73046875,300284.147202177,-2589259.955534623
476.422119140625,298045.6365057243,-2520830.709768818
479.11376953125,290459.1288349653,-2452616.366064598
481.805419921875,292079.0218965971,-2386149.36126074
484.4970703125,280494.9964953759,-2316749.599540215
487.188720703125,280530.8674828695,-2245375.325999166
489.88037109375,276205.2276431001,-2181966.051065647
492.572021484375,279574.7797411529,-2118522.349183633
495.263671875,250304.9306542289,-2049577.743057312
497.955322265625,253717.8758714711,-1981324.249523596
500.64697265625,250593.2888237924,-1905527.586437772
503.338623046875,241574.1162891054,-1836699.752709324
506.0302734375,237371.7994751505,-1746651.156701239
508.721923828125,233600.4241896297,-1681750.671454176
511.41357421875,242078.1501126249,-1606092.42411375
514.105224609375,231731.9103733351,-1529927.011166805
516.796875,255724.8232595363,-1468286.072421402
519.488525390625,252510.0803327532,-1398908.594189755
522.18017578125,259627.2080702858,-1331537.304418827
524.871826171875,259576.6217806115,-1269820.543144929
527.5634765625,264571.2387839303,-1202444.185825038
530.255126953125,263242.0839106205,-1136127.715266502
532.94677734375,264694.8288053906,-1078065.683148775
535.638427734375,270403.2053368602,-1016329.860200694
538.330078125,269201.9838177604,-952319.302209897
541.021728515625,269167.1574705981,-893093.6706848406
543.71337890625,267923.0918201437,-830535.3332311607
546.405029296875,263774.5796993193,-768292.5408213142
549.0966796875,258913.5508788402,-706071.2702500267
551.788330078125,255522.5067297676,-639266.6942976705
554.47998046875,248581.0752371486,-576891.5539967682
557.171630859375,246438.0712263234,-508057.3602126339
559.86328125,244891.4776631849,-441222.7052922911
562.554931640625,243330.4991776206,-371244.5387661696
565.24658203125,247149.4304736793,-304057.1991420099
567.938232421875,247196.7017091521,-236474.0664508324
570.6298828125,246614.4294413137,-174746.7675506969
573.321533203125,250591.2073050748,-103505.8093510626
576.01318359375,250377.0471258829,-39981.31691067155
578.704833984375,252948.7902601988,26014.80703815789
581.396484375,258853.0710273656,93326.64399135273
584.088134765625,255139.5121130997,156933.7417330434
586.77978515625,259510.89223973,223160.8309137548
589.471435546875,263970.166058008,287678.7840085456
592.1630859375,263789.0500053403,354809.1939322553
594.854736328125,268049.8897133151,417003.3913365854
597.54638671875,271039.5306828495,478744.7501569237
600.238037109375,272240.9974299113,544863.433156476
602.9296875,274607.6596684881,608090.1392835559
605.621337890625,277649.7642853638,672879.583318156
608.31298828125,281359.0561108553,738270.8818834849
611.004638671875,285418.4933218287,799358.0288682211
613.6962890625,283448.5201478097,862804.305988019
616.387939453125,286857.9722603909,923087.1881950498
619.07958984375,281513.0715678183,989731.4451872854
621.771240234375,281001.7049743002,1056003.272719793
624.462890625,283039.2072162529,1123885.602647637
627.154541015625,282217.0422014422,1192648.20384123
629.84619140625,285863.9108889537,1261945.210637407
632.537841796875,290535.2648533851,1330681.683678677
635.2294921875,297343.3365894243,1400555.53512451
637.921142578125,300778.7059811187,1462842.214306373
640.61279296875,307642.4905203015,1527484.108628915
643.304443359375,307376.7193199337,1595118.631018592
645.99609375,312254.3062468685,1657187.136156338
648.687744140625,313627.9510925467,1719824.610863874
651.37939453125,315454.9882434935,1789562.966223891
654.071044921875,316728.7177624439,1857492.842876951
656.7626953125,316053.2237737107,1924959.931145099
659.454345703125,325252.4950684476,2000661.382176339
662.14599609375,329444.2761058864,2065123.401421009
664.837646484375,341460.1477563921,2139530.976096388
667.529296875,341859.5492961261,2203178.341237918
670.220947265625,352380.4335305079,2264836.451204114
672.91259765625,360798.601007383,2330452.317411766
675.604248046875,361872.3974682674,2393753.52104621
678.2958984375,360753.936584711,2469335.84866056
680.987548828125,364825.2345913298,2530525.226831882
683.67919921875,367345.2401709103,2595243.65609463
686.370849609375,368374.503866522,2676053.596292409
689.0625,371572.8004316336,2739869.658126236
691.754150390625,372853.4522673552,2815643.894055955
694.44580078125,388355.6171407466,2895161.663642687
697.137451171875,396796.807804473,2938463.137987886
699.8291015625,408876.4398694713,3032523.99503372
702.520751953125,405580.9731526814,3090236.981453332
705.21240234375,409545.3148601433,3157513.605251456
707.904052734375,415938.9136356281,3229090.230557411
710.595703125,409525.857937402,3304383.741947242
713.287353515625,432458.010985454,3379071.651845872
715.97900390625,429156.6660007225,3451029.487193207
718.670654296875,441678.5566184307,3516445.950127942
721.3623046875,459606.0216505818,3589448.890887983
724.053955078125,476733.1511782182,3650000.300952388
726.74560546875,470883.1327607281,3704343.979084991
729.437255859375,465425.6850733145,3783937.468352248
732.12890625,473454.9639851954,3851973.281045589
734.820556640625,463885.757738958,3919983.578318342
737.51220703125,458556.4141389174,3982346.227030504
740.203857421875,457079.5473020776,4070560.844330894
742.8955078125,459750.5970157334,4160270.733451172
745.587158203125,452373.4081872349,4218994.744037342
748.27880859375,467697.3248564111,4319246.855003664
750.970458984375,461136.3000784692,4393266.756626328
753.662109375,462879.3364741006,4468962.374721884
756.353759765625,484121.5084346425,4551081.636296659
759.04541015625,474917.456200215,4623980.182686701
761.737060546875,488339.8579736702,4713832.664553051
764.4287109375,487831.9055099554,4784723.507329002
767.120361328125,474850.9354255109,4876644.042282393
769.81201171875,480038.2125800542,4952895.733419053
772.503662109375,479441.006336547,5046968.082103179
775.1953125,459105.5689499176,5133795.547305776
777.886962890625,481571.1190513109,5225939.000901029
780.57861328125,490911.2703290787,5335949.508509045
783.270263671875,480103.4576210348,5430359.983367983
785.9619140625,496046.9352065102,5523802.410482896
788.653564453125,510154.4088131285,5625203.291574044
791.34521484375,521601.5597422456,5724389.838539653
794.036865234375,519581.7160877674,5821580.589713312
796.728515625,541454.3419601707,5917983.155837344
799.420166015625,558268.1031651392,6017028.197594838
802.11181640625,577481.7596937227,6118970.50177396
804.803466796875,605495.3851170208,6201023.666452664
807.4951171875,615073.8626591417,6302814.109909047
810.186767578125,630553.5613678693,6401608.467351454
812.87841796875,638693.7874105521,6487044.976099578
815.570068359375,657638.8731361749,6587972.300439529
818.26171875,666363.7834444556,6679642.326310476
820.953369140625,685314.7032966104,6789025.375359789
823.64501953125,695977.2367458203,6878277.406393217
826.336669921875,717035.1934477652,6978812.091351609
829.0283203125,707224.9236915841,7100649.620442984
831.719970703125,739663.7549261315,7199630.645344643
834.41162109375,775168.1674889049,7306082.581255133
837.103271484375,777917.8290575097,7411763.129937355
839.794921875,796790.3240997929,7506525.815097778
842.486572265625,827935.8024421877,7603896.651123899
845.17822265625,820976.8598569672,7705915.58315635
847.869873046875,840544.1466390253,7813357.064373505
850.5615234375,843784.9556440365,7911434.280059176
853.253173828125,846962.1967249741,8031013.238422007
855.94482421875,850628.6689578653,8146563.90790445
858.636474609375,854267.650510193,8273361.9122494
861.328125,870801.8591772781,8419826.715815036
864.019775390625,896904.9813698493,8528267.351245817
866.71142578125,917444.8446367986,8671323.866194475
869.403076171875,951560.7458094853,8812686.786018731
872.0947265625,966593.2526526146,8922354.305806076
874.786376953125,1002016.137263014,9056970.619996058
877.47802734375,1035692.599934168,9193800.105109353
880.169677734375,1053754.67443068,9325980.182764161
882.861328125,1074634.656447234,9444950.118375657
885.552978515625,1105371.829088812,9571077.410101214
888.24462890625,1134208.86872899,9726077.589553293
890.936279296875,1165924.996670448,9855211.950458769
893.6279296875,1210092.116122854,9991006.350915594
896.319580078125,1238878.711525166,10113574.67512456
899.01123046875,1277765.144908449,10247722.47258822
901.702880859375,1291513.38588782,10392589.61949056
904.39453125,1311295.786934133,10477448.51690507
907.086181640625,1341292.854616603,10630368.10748131
909.77783203125,1343751.493921886,10778266.82509601
912.469482421875,1336575.718422561,10920498.19219309
915.1611328125,1333015.227216713,11086113.91729568
917.852783203125,1341145.629907775,11272494.58697292
920.54443359375,1368613.571101864,11474088.84667953
923.236083984375,1402939.527123946,11650843.52924085
925.927734375,1430379.753208234,11847683.87780799
928.619384765625,1473781.395812576,12019360.75440844
931.31103515625,1518528.226227826,12240265.13171906
934.002685546875,1559749.367861608,12440275.45066634
936.6943359375,1599975.290232867,12625639.08072704
939.385986328125,1677846.633671581,12825769.74907439
942.07763671875,1715312.43420987,13026894.64083532
944.769287109375,1787349.916900943,13183610.10288683
947.4609375,1833881.430090037,13425607.23259048
950.152587890625,1866384.321750176,13615507.2434526
952.84423828125,1924964.376111563,13815704.65481052
955.535888671875,1974845.285868903,14035252.59279861
958.2275390625,2035313.817717955,14242399.57793139
960.919189453125,2077290.761228452,14454791.29086433
963.61083984375,2110188.139535743,14706375.71492177
966.302490234375,2167129.853880148,14933300.94128294
968.994140625,2226507.277776923,15230936.99432797
971.685791015625,2296018.376203631,15458564.01267159
974.37744140625,2392846.962666627,15750139.86050046
977.069091796875,2498484.889544324,16044065.67092766
979.7607421875,2606112.135398404,16265794.12166372
982.452392578125,2689259.432820661,16510471.6114812
985.14404296875,2754688.926310344,16788461.57134194
987.835693359375,2847871.778463809,17033132.66189428
990.52734375,2944817.066616597,17340512.89264324
993.218994140625,3034492.798081664,17645190.21407539
995.91064453125,3110024.901445597,17963907.54584457
998.602294921875,3227682.933836551,18287910.34798566
1001.2939453125,3347915.710287153,18607809.21543942
1003.985595703125,3440940.993049619,18957894.21988088
1006.67724609375,3592855.985129828,19267981.06819959
1009.368896484375,3747601.685532033,19622369.06885827
1012.060546875,3825842.573116453,19984265.66559592
1014.752197265625,4016491.057975743,20302256.17583884
1017.44384765625,4130939.554276755,20713531.05992938
1020.135498046875,4295884.335100989,21080107.22095108
1022.8271484375,4421704.571109019,21507909.46483585
1025.518798828125,4559285.44839638,21948749.46648929
1028.21044921875,4683145.529719744,22349581.97898865
1030.902099609375,4906283.66055669,22800905.36398804
1033.59375,5086980.174154711,23297157.03692895
1036.285400390625,5247857.193847314,23813781.74380412
1038.97705078125,5502884.075213458,24282457.78240164
1041.668701171875,5786492.832161003,24828251.55493251
1044.3603515625,5928680.569294915,25376503.84871395
1047.052001953125,6181457.774294734,25937417.87338619
1049.74365234375,6457413.810563157,26519885.65717277
1052.435302734375,6705879.667598374,27179001.53495513
1055.126953125,7077500.713942592,27845878.64550413
1057.818603515625,7417547.143172581,28528803.96052301
1060.51025390625,7890732.31659509,29264830.27208301
1063.201904296875,8281167.020727383,30006760.88853982
1065.8935546875,8805549.961749746,30652786.58040483
1068.585205078125,9335886.944381075,31355939.60051186
1071.27685546875,9804953.810079822,32178956.01656097
1073.968505859375,10369933.20742441,32930801.45113026
1076.66015625,10846820.57308411,33718023.30485348
1079.351806640625,11535407.29715395,34615427.33481254
1082.04345703125,11978626.07719834,35564793.3152135
1084.735107421875,12713614.38938472,36552932.70153823
1087.4267578125,13484785.04494061,37682615.69908617
1090.118408203125,14303032.60608938,38773786.70460538
1092.81005859375,15245804.77240533,39962091.3500292
1095.501708984375,16368058.42473014,41195787.39902916
1098.193359375,17479589.87662651,42510921.92262074
1100.885009765625,18869410.27730584,43810388.65636218
1103.57666015625,20252949.65820602,45268708.26661184
1106.268310546875,21634902.90546481,46562277.0186414
1108.9599609375,23467996.39526067,48254854.24159946
1111.651611328125,25585665.69117857,50016601.23707071
1114.34326171875,27845636.01604548,51178653.32399435
1117.034912109375,30355423.30401922,53055513.2888351
1119.7265625,33149129.56014834,54257485.61664148
1122.418212890625,36324307.85535767,55994983.8587991
1125.10986328125,39884073.39700296,57483669.59467112
1127.801513671875,44013810.38185415,59051362.80336376
1130.4931640625,48377262.92289421,60166788.57965843
1133.184814453125,53411574.81735267,60803672.39356818
1135.87646484375,59172597.98660891,61313848.70592443
1138.568115234375,65606436.9586084,61421517.32070357
1141.259765625,72515868.23881736,60703939.17764596
