f (Hz),Re(Z),Im(Z)
118.4326171875,3244441.885602307,15978260.73735251
121.124267578125,5522785.635063308,20402826.95266221
123.81591796875,11127601.97722377,27428625.26989731
126.507568359375,27222757.03924635,37027119.92982979
129.19921875,72436362.84813561,18926176.29982295
131.890869140625,45843907.46253484,-37601613.05098947
134.58251953125,16777194.46319194,-31237953.84312193
137.274169921875,7946856.459505299,-22869766.58574895
139.9658203125,4573226.636050639,-17529458.11339225
142.657470703125,2997168.964280453,-14078025.04260097
145.34912109375,2128529.239794533,-11747643.51348954
148.040771484375,1678966.219685592,-10037959.66871445
150.732421875,1293574.499151326,-8792204.087175986
153.424072265625,1042240.624496345,-7760881.797118017
156.11572265625,882988.4353917569,-6924008.264414729
158.807373046875,823569.1433245272,-6265768.055674119
161.4990234375,732852.2222493708,-5774662.438180671
164.190673828125,611962.2421493168,-5346226.710821198
166.88232421875,478437.0141475818,-4934414.801592077
169.573974609375,380284.9092351714,-4526208.396693362
172.265625,338273.3082584911,-4170074.462713469
174.957275390625,302112.1133144301,-3883769.787122445
177.64892578125,256949.8438894779,-3601670.888109006
180.340576171875,222022.1745506715,-3358811.06983742
183.0322265625,200238.9575342419,-3110881.731200551
185.723876953125,188548.4863564027,-2898218.277566121
188.41552734375,187317.7127346156,-2718659.524843439
191.107177734375,186764.2385865346,-2540503.913897475
193.798828125,169675.94407257,-2389176.75398397
196.490478515625,170276.7353743214,-2239406.468863512
199.18212890625,159261.9477156295,-2113033.698247286
201.873779296875,141986.1303774008,-1980105.299763685
204.5654296875,133921.8029810903,-1849634.09165246
207.257080078125,122252.6878172468,-1718224.164999268
209.94873046875,122775.159200288,-1602551.682678947
212.640380859375,134000.3111005196,-1492843.622463145
215.33203125,137274.5619606016,-1397244.29951553
218.023681640625,134259.8794494535,-1312957.605598249
220.71533203125,120104.8567046942,-1223771.72213639
223.406982421875,107855.7559335741,-1126312.013929595
226.0986328125,104381.6413174975,-1033884.637325565
228.790283203125,98223.51466342906,-942172.6251714567
231.48193359375,97000.81806410954,-852388.4960082339
234.173583984375,98316.48032525009,-770625.528699726
236.865234375,97695.21540063915,-683335.5187594449
239.556884765625,99802.48398811888,-604378.8206754121
242.24853515625,102578.6239220254,-528634.2181624583
244.940185546875,101388.7022449907,-453120.3408361899
247.6318359375,100118.0380742235,-379098.6124673675
250.323486328125,99266.23424313206,-303504.1072634878
253.01513671875,98640.62294680148,-231288.1592358364
255.706787109375,96907.01037608345,-156720.9905843745
258.3984375,95917.92460544806,-82408.37537764281
261.090087890625,95563.10697233393,-7627.22894800664
263.78173828125,95932.47234169727,67316.86367653932
266.473388671875,97698.42183837191,142238.4745818251
269.1650390625,99392.53702625929,216439.5770795902
271.856689453125,101855.5875467839,290790.0597621109
274.54833984375,101805.334436012,364807.8760778884
277.239990234375,103402.4128617693,441606.6306613728
279.931640625,106882.2312604233,519426.3165396077
282.623291015625,107627.1410169881,593806.7583269571
285.31494140625,108609.2208178333,676504.5845949538
288.006591796875,115137.1100257346,756960.2805846591
290.6982421875,119181.9723847222,835813.9826700962
293.389892578125,119519.0773894711,922129.7907094711
296.08154296875,120583.428858701,1010351.464174095
298.773193359375,135158.0917530746,1100503.696098771
301.46484375,139030.7125305456,1184330.379137567
304.156494140625,138058.7869919884,1279371.415913095
306.84814453125,144550.6219177223,1377682.991306813
309.539794921875,161702.0219079618,1471595.064539116
312.2314453125,161942.4345321645,1581935.657865003
314.923095703125,163866.0132202681,1693585.776676983
317.61474609375,185129.1333078778,1818831.43948726
320.306396484375,221580.2675305613,1928532.450477771
322.998046875,228223.3252195682,2021245.899591878
325.689697265625,207160.7942407749,2129634.161289684
328.38134765625,172518.8861669418,2286854.964591322
331.072998046875,177174.2722132954,2479082.636813534
333.7646484375,208176.0505126432,2653842.036785894
336.456298828125,208751.7696932888,2831627.599843242
339.14794921875,222152.5474608338,3043226.481767877
341.839599609375,247826.8075566007,3280626.090993122
344.53125,264701.846008488,3532784.623610109
347.222900390625,286270.8301511212,3817298.052550097
349.91455078125,412473.9540429272,4141410.875512544
352.606201171875,485442.2958221444,4487540.030385081
355.2978515625,600579.7751442118,4843512.2397887
357.989501953125,714858.4176239975,5235355.956516909
360.68115234375,813447.6269914733,5685584.589881851
363.372802734375,969863.2895463369,6232595.762073796
366.064453125,1188948.321282046,6882177.955327208
368.756103515625,1481348.892759855,7598567.431766274
371.44775390625,1822159.223439964,8548288.000431776
374.139404296875,2328053.087081696,9708187.827926949
376.8310546875,3109504.43562983,11158922.72792304
379.522705078125,4330284.016296053,13082925.5619181
382.21435546875,6493343.632561843,15708797.56861112
384.906005859375,10608024.93072721,18986772.30711918
387.59765625,19001677.05778427,22032935.95751843
390.289306640625,34562765.73282796,18316683.76407905
392.98095703125,43906980.083878,-3750018.43451288
395.672607421875,29641791.35519858,-20701565.66549522
398.3642578125,16032135.38684794,-21259385.99647041
401.055908203125,9220876.021790426,-17838646.26897773
403.74755859375,5813392.983115119,-14722282.3046818
406.439208984375,3998940.228395183,-12341711.8055838
409.130859375,2937535.119007256,-10585433.8600949
411.822509765625,2267281.359606555,-9218325.437392514
414.51416015625,1804616.449692514,-8139716.225455062
417.205810546875,1438648.275863491,-7279020.923099685
419.8974609375,1193039.153411705,-6555240.786799948
422.589111328125,1035219.362061884,-5926263.059053827
425.28076171875,896375.0075576976,-5413736.247469215
427.972412109375,802195.3381780733,-4991580.364363063
430.6640625,703015.0903517589,-4605961.079195099
433.355712890625,640708.8987429864,-4272238.625327894
436.04736328125,567631.7603929782,-3985187.208587373
438.739013671875,499650.9262784722,-3728916.752836152
441.4306640625,440625.7575459356,-3481106.21273445
444.122314453125,378069.0991496924,-3249579.999040795
446.81396484375,337498.6165769114,-3021734.825357263
449.505615234375,305637.325164411,-2832656.13382728
452.197265625,300858.4212141884,-2636279.164376896
454.888916015625,281435.9453934492,-2469384.153418318
457.58056640625,266665.7188436534,-2312307.896458199
460.272216796875,249249.0075071391,-2170269.069840184
462.9638671875,239424.1411275456,-2032967.857319506
465.655517578125,231816.2179363646,-1908720.977456762
468.34716796875,228266.3167156299,-1787691.298699706
471.038818359375,220982.1714127451,-1676920.123355265
473.73046875,217361.2322059073,-1574060.683997815
476.422119140625,209950.1227141813,-1467482.45683794
479.11376953125,195883.4931236378,-1366497.373748407
481.805419921875,182721.0832896407,-1279502.65461036
484.4970703125,174778.3472344585,-1184661.53728099
487.188720703125,167020.6386285691,-1092301.079340599
489.88037109375,163180.7964378302,-992576.1252979499
492.572021484375,155742.4815762902,-907372.5889291929
495.263671875,154110.1835838791,-820222.023704253
497.955322265625,154793.4757824535,-738175.920636118
500.64697265625,153712.7682663328,-658257.5033765673
503.338623046875,149224.5652689925,-577650.3564302369
506.0302734375,149317.6269634294,-502944.3657221937
508.721923828125,145071.7728464001,-426950.0370212109
511.41357421875,143085.7387364651,-352937.4333639219
514.105224609375,141876.184138787,-277648.2795650194
516.796875,140399.857435906,-202659.0796324983
519.488525390625,139610.6929617498,-127707.991475462
522.18017578125,138487.6403935373,-53250.19971215267
524.871826171875,138824.4142295522,22189.17476874981
527.5634765625,138835.2496483752,97755.51699009993
530.255126953125,142523.1079520697,171542.6786802498
532.94677734375,145349.2625934306,247577.1508233144
535.638427734375,146656.9778757732,320290.61003587
538.330078125,146742.0854991387,392852.9727508894
541.021728515625,150029.8909444383,466499.0868508958
543.71337890625,149300.6555262711,543524.5517158869
546.405029296875,150116.1187172871,624777.4864595588
549.0966796875,155513.488499134,702341.4612806018
551.788330078125,159636.3222727825,781153.7471451318
554.47998046875,157458.3185242576,872385.8180181576
557.171630859375,165119.0058418379,955200.6146370958
559.86328125,166158.5921883852,1045688.064637579
562.554931640625,171992.0667976275,1133614.570322571
565.24658203125,183673.592479534,1224753.527257591
567.938232421875,185884.6084845916,1332589.504011931
570.6298828125,202793.2803113688,1435928.883748352
573.321533203125,212637.694990533,1538818.76588697
576.01318359375,234906.0438234698,1637670.556148582
578.704833984375,251516.7543150466,1752935.4935412
581.396484375,261251.3555354627,1860847.803151108
584.088134765625,272608.9231685314,1976883.635637463
586.77978515625,287708.8979337941,2116101.7101067
589.471435546875,304427.2465129058,2254490.319600209
592.1630859375,330629.2199518303,2402463.293019089
594.854736328125,350119.3319348491,2543746.267080321
597.54638671875,361101.6946186372,2714115.330936044
600.238037109375,384787.4656474657,2894106.439037233
602.9296875,410394.2401194291,3110364.262999619
605.621337890625,455988.8275003894,3330092.410131949
608.31298828125,507951.5477864429,3585136.484778719
611.004638671875,572318.3548673294,3849292.43424508
613.6962890625,644984.9052660184,4142838.636212055
616.387939453125,744298.1362893789,4471971.862529004
619.07958984375,884326.2095543137,4819212.410711479
621.771240234375,1026407.421949224,5216074.503868171
624.462890625,1175772.685800296,5660411.887807547
627.154541015625,1367902.700838085,6211986.90055599
629.84619140625,1631128.525695072,6850298.054420359
632.537841796875,1999322.283567168,7592809.612452202
635.2294921875,2500014.347492819,8495498.931980753
637.921142578125,3197143.110956329,9573313.684465056
640.61279296875,4172676.993089658,10934908.80073564
643.304443359375,5777466.593555363,12612652.72234846
645.99609375,8436392.548434936,14646877.11061919
648.687744140625,13079185.23283718,16667412.01551545
651.37939453125,21226972.14582607,16922913.27833075
654.071044921875,31760951.67121218,9695618.065417811
656.7626953125,33692677.43250525,-6107019.553460279
659.454345703125,24041572.05840858,-16150862.55730871
662.14599609375,14834517.63555109,-17223776.70007516
664.837646484375,9308822.610665135,-15360273.42158789
667.529296875,6168100.076957209,-13239377.20967398
670.220947265625,4362256.078316852,-11382152.35266323
672.91259765625,3248757.078824844,-9901648.701488715
675.604248046875,2485723.672934433,-8689012.148847457
678.2958984375,1989301.657449341,-7742775.759472978
680.987548828125,1627155.112382154,-6921863.159565433
683.67919921875,1366318.086145541,-6270339.89478799
686.370849609375,1164623.867223547,-5697408.315921487
689.0625,1016426.455399632,-5232010.247982267
691.754150390625,907055.7562139201,-4813311.831856207
694.44580078125,800478.4996978601,-4459691.080187688
697.137451171875,719790.2194192859,-4153827.95100935
699.8291015625,653586.6508978334,-3866442.928421908
702.520751953125,580885.9564747147,-3614391.509740722
705.21240234375,523134.0855031675,-3373802.014576272
707.904052734375,466868.6224349638,-3152471.530146591
710.595703125,421005.6209918123,-2951044.142659256
713.287353515625,390792.6329273853,-2749774.860561139
715.97900390625,365018.6744421165,-2578824.825619328
718.670654296875,351507.188211249,-2416398.723067014
721.3623046875,334589.5125573858,-2263401.824093218
724.053955078125,320300.8825397135,-2128352.667110836
726.74560546875,306253.1146923147,-1998934.3044243
729.437255859375,294733.0285725807,-1869983.518797745
732.12890625,281967.2886720405,-1757237.485679363
734.820556640625,275611.3113325353,-1648378.23032852
737.51220703125,263006.3453708075,-1543741.036597491
740.203857421875,258079.2241430976,-1448902.734391749
742.8955078125,247197.4979920603,-1351515.096731612
745.587158203125,232922.2449042334,-1255878.035298326
748.27880859375,222741.2678376774,-1168017.459116897
750.970458984375,216692.7975860875,-1074027.677416103
753.662109375,205376.6967473596,-991413.0784437669
756.353759765625,200824.9764096432,-901409.8837798431
759.04541015625,195754.179582015,-818060.7435451068
761.737060546875,190433.2338008168,-736337.7611558386
764.4287109375,185700.7065930106,-653335.7497526112
767.120361328125,184393.6622443513,-576070.9758291838
769.81201171875,181652.7443802604,-495612.3263406644
772.503662109375,179189.8797166877,-421273.8948216159
775.1953125,178819.4775124566,-346846.3356166349
777.886962890625,179116.2680524791,-271441.9897080094
780.57861328125,177952.0740018173,-196221.2035584351
783.270263671875,175428.2138535047,-122801.8551099262
785.9619140625,176210.1293169241,-48667.97975699688
788.653564453125,176774.4897141675,25232.00248878336
791.34521484375,179139.9367890141,98215.76658287321
794.036865234375,181199.5067684383,170442.6096830408
796.728515625,184560.0878721941,244308.4814392941
799.420166015625,183740.2208001165,316511.2284605906
802.11181640625,187668.7867539396,391298.1517042409
804.803466796875,189371.4656374319,465635.3378164324
807.4951171875,191799.8196121632,541813.984939457
810.186767578125,196821.2342155268,619788.2680262433
812.87841796875,198905.0990520654,694028.8082526404
815.570068359375,200270.1774368614,772985.2289179824
818.26171875,202670.9833576105,854174.2102652426
820.953369140625,200593.0281973737,944503.7266923904
823.64501953125,202594.5600782248,1024112.581044597
826.336669921875,207129.7134001752,1122945.353918449
829.0283203125,216598.2546710988,1219421.057110636
831.719970703125,230329.5949607798,1313581.255878127
834.41162109375,228343.7645149355,1418891.394868078
837.103271484375,257322.961687079,1525119.183906973
839.794921875,261885.003213999,1632076.937107571
842.486572265625,293863.9820026426,1741690.0673645
845.17822265625,301436.1828103995,1854992.418773924
847.869873046875,311330.8585003989,1972964.710338813
850.5615234375,329862.0094151674,2101003.514854772
853.253173828125,335396.2993368394,2244066.343686163
855.94482421875,360058.567574206,2396141.201336579
858.636474609375,380579.0249946426,2546320.519894171
861.328125,416067.1527669633,2716930.226841463
864.019775390625,428196.5308603452,2911251.800760838
866.71142578125,481711.3180116159,3114898.691918578
869.403076171875,530261.8290909131,3327914.130755613
872.0947265625,581827.1423133458,3572991.945584397
874.786376953125,650005.2282752357,3847213.743434321
877.47802734375,742813.2834688694,4149052.980562519
880.169677734375,871851.9148182455,4453461.209764911
882.861328125,1007068.6174715,4813190.091135945
885.552978515625,1154121.345853247,5196491.918748199
888.24462890625,1345338.69549433,5645201.924046688
890.936279296875,1618923.982421288,6157820.833138885
893.6279296875,1924628.429558224,6781348.112617991
896.319580078125,2343135.276947702,7478672.850550963
899.01123046875,2901608.357334253,8289323.815104907
901.702880859375,3712231.51379509,9263702.060348481
904.39453125,4836144.754832781,10462255.2745814
907.086181640625,6572955.17373388,11797349.31342897
909.77783203125,9374227.114056733,13229393.38934391
912.469482421875,13807205.17481054,14009261.88446007
915.1611328125,20243724.15038893,12656910.74310527
917.852783203125,26514142.15584156,6369413.041228645
920.54443359375,27225817.27609776,-3970513.050180444
923.236083984375,21789568.81119521,-11392356.86335175
925.927734375,15078345.36781571,-13801849.33647444
928.619384765625,10324696.76177666,-13228916.54568825
931.31103515625,7224889.915111346,-12010642.8552327
934.002685546875,5257847.902094093,-10653336.12594644
936.6943359375,3976465.937477431,-9419827.938222447
939.385986328125,3103330.01246185,-8390414.062176924
942.07763671875,2496892.613460105,-7550811.095431455
944.769287109375,2061577.271991468,-6802422.43162926
947.4609375,1740710.982453592,-6186369.846721096
950.152587890625,1502463.073235573,-5656054.549082434
952.84423828125,1304237.198141385,-5196794.166488417
955.535888671875,1143771.076737356,-4797958.05748172
958.2275390625,1015214.915404549,-4455035.243981781
960.919189453125,914190.0738208895,-4141743.46562133
963.61083984375,816148.6542189808,-3861957.942694435
966.302490234375,737210.8415354699,-3618930.901021179
968.994140625,656331.4589852946,-3390229.698089124
971.685791015625,605075.6169611841,-3174159.346740493
974.37744140625,548176.0164680718,-2965787.458988952
977.069091796875,500664.3714147676,-2782337.481178975
979.7607421875,461509.3229170499,-2605351.025587998
982.452392578125,438240.5310992773,-2446803.607093181
985.14404296875,400982.4118500548,-2295571.018485224
987.835693359375,385619.2181686311,-2151592.515653792
990.52734375,365344.2353574262,-2016999.122630972
993.218994140625,349148.7307453839,-1896108.082669591
995.91064453125,328381.0775527282,-1776178.373219314
998.602294921875,319934.3669201573,-1663716.754574121
1001.2939453125,303217.0700916218,-1557786.49622561
1003.985595703125,286323.7034800317,-1453240.944391166
1006.67724609375,279601.0695530323,-1353848.555466047
1009.368896484375,271144.1435898706,-1261327.138526862
1012.060546875,261791.9553318308,-1168247.117960778
1014.752197265625,248733.6455599232,-1079087.621803587
1017.44384765625,239992.9733008763,-989500.4841795166
1020.135498046875,237195.0506393481,-902847.6966420014
1022.8271484375,231631.5750317542,-819877.9001378287
1025.518798828125,226127.2021803464,-738617.4376219957
1028.21044921875,220984.1762805244,-658133.9999860193
1030.902099609375,218355.1984989864,-576310.9361987695
1033.59375,214338.579736278,-499702.8114032672
1036.285400390625,213803.9749348744,-424526.4471132464
1038.97705078125,212148.9778523013,-349686.1396865098
1041.668701171875,209344.65283787,-274181.8151601491
1044.3603515625,209080.030156993,-201915.1177768999
1047.052001953125,205357.6168379841,-127837.8327667687
1049.74365234375,203464.5780063498,-53037.74908556687
1052.435302734375,204284.9964331891,21467.92007763224
1055.126953125,207203.2332810413,95945.49943168148
1057.818603515625,208898.4415066185,169225.4865899791
1060.51025390625,212166.7883097518,242365.3408190397
1063.201904296875,215945.0104951639,314209.6757666434
1065.8935546875,217660.1766890722,387986.3471938109
1068.585205078125,217212.6856417517,460724.4335583583
1071.27685546875,223421.4340203028,537104.5636015598
1073.968505859375,225917.0071319811,612927.6676900716
1076.66015625,224791.275837578,694065.7830130366
1079.351806640625,227572.977053828,775855.7640917675
1082.04345703125,228466.0153665857,855875.0790630862
1084.735107421875,235504.9676023003,946280.3375495983
1087.4267578125,241801.5893500824,1034698.881069018
1090.118408203125,247533.8126206904,1125895.291159183
1092.81005859375,257033.4721844762,1228245.501666415
1095.501708984375,269649.5139057881,1324099.638057861
1098.193359375,284667.2762026474,1427600.611871365
1100.885009765625,308006.9896494786,1529526.950612623
1103.57666015625,326758.9310670681,1638207.770133441
1106.268310546875,339297.3302552662,1742108.303086326
1108.9599609375,361815.0662087047,1860867.792818446
1111.651611328125,375458.3139100366,1968421.748942877
1114.34326171875,416441.5153411091,2100152.525758221
1117.034912109375,427670.4750491271,2227215.621095355
1119.7265625,453228.146725564,2376373.112266188
1122.418212890625,486913.5714310909,2519674.331356558
1125.10986328125,510994.0659927001,2691912.57205525
1127.801513671875,535933.7630716246,2867158.907043695
1130.4931640625,589061.1065196643,3075396.787203308
1133.184814453125,648849.6260452337,3290895.570699419
1135.87646484375,697375.050123904,3528410.056343479
1138.568115234375,796967.5913416022,3795286.013876893
1141.259765625,891806.5709972085,4071134.528921459
